T1304 000:003.641   SEGGER J-Link V7.60g Log File
T1304 000:003.787   DLL Compiled: Feb  2 2022 10:29:08
T1304 000:003.811   Logging started @ 2022-07-30 15:40
T1304 000:003.819 - 3.824ms
T1304 000:003.910 JLINK_SetWarnOutHandler(...)
T1304 000:004.032 - 0.125ms
T1304 000:004.041 JLINK_OpenEx(...)
T1304 000:007.740   Firmware: J-Link STLink V21 compiled Aug 12 2019 10:29:20
T1304 000:008.893   Firmware: J-Link STLink V21 compiled Aug 12 2019 10:29:20
T1304 000:024.400   Hardware: V1.00
T1304 000:024.427   S/N: 775351129
T1304 000:024.437   OEM: SEGGER
T1304 000:024.447   Feature(s): None
T1304 000:028.180   TELNET listener socket opened on port 19021
T1304 000:028.314   WEBSRV WEBSRV_Init(): Starting webserver thread(s)
T1304 000:028.415   WEBSRV Webserver running on local port 19080
T1304 000:037.449 - 33.430ms returns "O.K."
T1304 000:037.490 JLINK_GetEmuCaps()
T1304 000:037.498 - 0.011ms returns 0x98EA5A33
T1304 000:037.507 JLINK_TIF_GetAvailable(...)
T1304 000:038.352 - 0.859ms
T1304 000:038.374 JLINK_SetErrorOutHandler(...)
T1304 000:038.381 - 0.010ms
T1304 000:038.401 JLINK_ExecCommand("ProjectFile = "C:\repos\tcobs\TCOBSv2\test\MDK-ARM_STM32G031K8\MDK-ARM\JLinkSettings.ini"", ...). 
T1304 000:046.163   Ref file found at: C:\Keil_v5\ARM\Segger\JLinkDevices.ref
T1304 000:046.255   XML referenced by ref file: C:\Program Files\SEGGER\JLink\JLinkDevices.xml
T1304 000:046.705   C:\Program Files\SEGGER\JLink\JLinkDevices.xml evaluated successfully.
T1304 000:068.811 - 30.428ms returns 0x00
T1304 000:069.408 JLINK_ExecCommand("Device = STM32G031K8Tx", ...). 
T1304 000:070.853   Device "STM32G031K8" selected.
T1304 000:072.135 - 2.720ms returns 0x00
T1304 000:072.157 JLINK_ExecCommand("DisableConnectionTimeout", ...). 
T1304 000:072.166 - 0.004ms returns 0x01
T1304 000:072.174 JLINK_GetHardwareVersion()
T1304 000:072.181 - 0.010ms returns 10000
T1304 000:072.189 JLINK_GetDLLVersion()
T1304 000:072.195 - 0.009ms returns 76007
T1304 000:072.203 JLINK_GetOEMString(...)
T1304 000:072.211 JLINK_GetFirmwareString(...)
T1304 000:072.218 - 0.010ms
T1304 000:073.204 JLINK_GetDLLVersion()
T1304 000:073.218 - 0.018ms returns 76007
T1304 000:073.227 JLINK_GetCompileDateTime()
T1304 000:073.233 - 0.010ms
T1304 000:073.534 JLINK_GetFirmwareString(...)
T1304 000:073.548 - 0.016ms
T1304 000:075.969 JLINK_GetHardwareVersion()
T1304 000:075.992 - 0.027ms returns 10000
T1304 000:077.372 JLINK_GetSN()
T1304 000:077.396 - 0.028ms returns 775351129
T1304 000:078.540 JLINK_GetOEMString(...)
T1304 000:079.658 JLINK_TIF_Select(JLINKARM_TIF_SWD)
T1304 000:082.604 - 2.973ms returns 0x00
T1304 000:082.639 JLINK_HasError()
T1304 000:082.654 JLINK_SetSpeed(5000)
T1304 000:083.322 - 0.683ms
T1304 000:083.345 JLINK_GetId()
T1304 000:085.758   InitTarget() start
T1304 000:085.796    J-Link Script File: Executing InitTarget()
T1304 000:113.828   Looking for J-Link GUI Server exe at: C:\Keil_v5\ARM\Segger\JLinkGUIServer.exe
T1304 000:113.951   Looking for J-Link GUI Server exe at: C:\Program Files\SEGGER\JLink\JLinkGUIServer.exe
T1304 000:113.992   Forking J-Link GUI Server: C:\Program Files\SEGGER\JLink\JLinkGUIServer.exe
T1304 000:135.977   J-Link GUI Server info: "J-Link GUI server V7.60g "
T1304 002:663.614   Skipping unsecure.
T1304 002:666.667   InitTarget() end
T1304 002:670.910   Found SW-DP with ID 0x0BB11477
T1304 002:675.138   Old FW that does not support reading DPIDR via DAP jobs
T1304 002:677.817   DPv0 detected
T1304 002:678.882   CoreSight SoC-400 or earlier
T1304 002:679.915   Scanning AP map to find all available APs
T1304 002:682.424   AP[1]: Stopped AP scan as end of AP map has been reached
T1304 002:683.484   AP[0]: AHB-AP (IDR: 0x04770021)
T1304 002:684.967   Iterating through AP map to find AHB-AP to use
T1304 002:687.911   AP[0]: Core found
T1304 002:689.207   AP[0]: AHB-AP ROM base: 0xE00FF000
T1304 002:691.179   CPUID register: 0x410CC200. Implementer code: 0x41 (ARM)
T1304 002:692.230   Found Cortex-M0 r0p0, Little endian.
T1304 002:794.598   -- Max. mem block: 0x00002EB8
T1304 002:796.053   CPU_ReadMem(4 bytes @ 0xE000EDF0)
T1304 002:797.428   CPU_ReadMem(4 bytes @ 0xE0002000)
T1304 002:800.095   FPUnit: 4 code (BP) slots and 0 literal slots
T1304 002:800.116   CPU_ReadMem(4 bytes @ 0xE000EDFC)
T1304 002:801.264   CPU_WriteMem(4 bytes @ 0xE000EDFC)
T1304 002:802.595   CPU_ReadMem(4 bytes @ 0xE0001000)
T1304 002:803.899   CPU_WriteMem(4 bytes @ 0xE0001000)
T1304 002:806.569   CoreSight components:
T1304 002:807.703   ROMTbl[0] @ E00FF000
T1304 002:807.723   CPU_ReadMem(64 bytes @ 0xE00FF000)
T1304 002:809.009   CPU_ReadMem(32 bytes @ 0xE000EFE0)
T1304 002:811.431   [0][0]: E000E000 CID B105E00D PID 000BB008 SCS
T1304 002:811.450   CPU_ReadMem(32 bytes @ 0xE0001FE0)
T1304 002:813.842   [0][1]: E0001000 CID B105E00D PID 000BB00A DWT
T1304 002:813.861   CPU_ReadMem(32 bytes @ 0xE0002FE0)
T1304 002:816.307   [0][2]: E0002000 CID B105E00D PID 000BB00B FPB
T1304 002:817.169 - 2733.838ms returns 0x0BB11477
T1304 002:817.193 JLINK_GetDLLVersion()
T1304 002:817.199 - 0.009ms returns 76007
T1304 002:817.218 JLINK_CORE_GetFound()
T1304 002:817.225 - 0.010ms returns 0x60000FF
T1304 002:817.236 JLINK_GetDebugInfo(0x100 = JLINKARM_ROM_TABLE_ADDR_INDEX)
T1304 002:817.245   Value=0xE00FF000
T1304 002:817.254 - 0.021ms returns 0
T1304 002:819.054 JLINK_GetDebugInfo(0x100 = JLINKARM_ROM_TABLE_ADDR_INDEX)
T1304 002:819.150   Value=0xE00FF000
T1304 002:819.161 - 0.111ms returns 0
T1304 002:819.170 JLINK_GetDebugInfo(0x101 = JLINKARM_DEBUG_INFO_ETM_ADDR_INDEX)
T1304 002:819.177   Value=0x00000000
T1304 002:819.188 - 0.021ms returns 0
T1304 002:819.224 JLINK_ReadMemEx(0xE0041FF0, 0x10 Bytes, Flags = 0x02000004)
T1304 002:819.283   CPU_ReadMem(16 bytes @ 0xE0041FF0)
T1304 002:820.789   Data:  00 00 00 00 00 00 00 00 00 00 00 00 00 00 00 00
T1304 002:820.819 - 1.597ms returns 16 (0x10)
T1304 002:820.828 JLINK_GetDebugInfo(0x102 = JLINKARM_DEBUG_INFO_MTB_ADDR_INDEX)
T1304 002:820.835   Value=0x00000000
T1304 002:820.844 - 0.019ms returns 0
T1304 002:820.852 JLINK_GetDebugInfo(0x103 = JLINKARM_DEBUG_INFO_TPIU_ADDR_INDEX)
T1304 002:820.859   Value=0x00000000
T1304 002:820.868 - 0.018ms returns 0
T1304 002:820.875 JLINK_ReadMemEx(0xE0040FF0, 0x10 Bytes, Flags = 0x02000004)
T1304 002:820.886   CPU_ReadMem(16 bytes @ 0xE0040FF0)
T1304 002:822.113   Data:  00 00 00 00 00 00 00 00 00 00 00 00 00 00 00 00
T1304 002:822.160 - 1.288ms returns 16 (0x10)
T1304 002:822.170 JLINK_GetDebugInfo(0x104 = JLINKARM_DEBUG_INFO_ITM_ADDR_INDEX)
T1304 002:822.177   Value=0xE0000000
T1304 002:822.186 - 0.018ms returns 0
T1304 002:822.192 JLINK_GetDebugInfo(0x105 = JLINKARM_DEBUG_INFO_DWT_ADDR_INDEX)
T1304 002:822.198   Value=0xE0001000
T1304 002:822.207 - 0.017ms returns 0
T1304 002:822.213 JLINK_GetDebugInfo(0x106 = JLINKARM_DEBUG_INFO_FPB_ADDR_INDEX)
T1304 002:822.219   Value=0xE0002000
T1304 002:822.227 - 0.017ms returns 0
T1304 002:822.234 JLINK_GetDebugInfo(0x107 = JLINKARM_DEBUG_INFO_NVIC_ADDR_INDEX)
T1304 002:822.240   Value=0xE000E000
T1304 002:822.248 - 0.017ms returns 0
T1304 002:822.255 JLINK_GetDebugInfo(0x10C = JLINKARM_DEBUG_INFO_DBG_ADDR_INDEX)
T1304 002:822.260   Value=0xE000EDF0
T1304 002:822.269 - 0.017ms returns 0
T1304 002:822.275 JLINK_GetDebugInfo(0x01 = Unknown)
T1304 002:822.281   Value=0x00000000
T1304 002:822.290 - 0.017ms returns 0
T1304 002:822.296 JLINK_ReadMemU32(0xE000ED00, 0x1 Items)
T1304 002:822.309   CPU_ReadMem(4 bytes @ 0xE000ED00)
T1304 002:823.208   Data:  00 C2 0C 41
T1304 002:823.226   Debug reg: CPUID
T1304 002:823.234 - 0.941ms returns 1 (0x1)
T1304 002:823.242 JLINK_GetDebugInfo(0x10F = JLINKARM_DEBUG_INFO_HAS_CORTEX_M_SECURITY_EXT_INDEX)
T1304 002:823.248   Value=0x00000000
T1304 002:823.257 - 0.017ms returns 0
T1304 002:823.264 JLINK_HasError()
T1304 002:823.272 JLINK_SetResetType(JLINKARM_CM3_RESET_TYPE_NORMAL)
T1304 002:823.278 - 0.008ms returns JLINKARM_CM3_RESET_TYPE_NORMAL
T1304 002:823.284 JLINK_Reset()
T1304 002:823.308   CPU is running
T1304 002:823.318   CPU_WriteMem(4 bytes @ 0xE000EDF0)
T1304 002:824.555   CPU is running
T1304 002:824.578   CPU_WriteMem(4 bytes @ 0xE000EDFC)
T1304 002:827.243   Reset: Halt core after reset via DEMCR.VC_CORERESET.
T1304 002:830.135   Reset: Reset device via AIRCR.SYSRESETREQ.
T1304 002:830.153   CPU is running
T1304 002:830.163   CPU_WriteMem(4 bytes @ 0xE000ED0C)
T1304 002:885.631   CPU_ReadMem(4 bytes @ 0xE000EDF0)
T1304 002:887.132   CPU_ReadMem(4 bytes @ 0xE000EDF0)
T1304 002:888.447   CPU is running
T1304 002:888.549   CPU_WriteMem(4 bytes @ 0xE000EDF0)
T1304 002:889.676   CPU is running
T1304 002:889.695   CPU_WriteMem(4 bytes @ 0xE000EDFC)
T1304 002:896.682   CPU_ReadMem(4 bytes @ 0xE000EDF0)
T1304 002:902.645   CPU_WriteMem(4 bytes @ 0xE0002000)
T1304 002:904.233   CPU_ReadMem(4 bytes @ 0xE000EDFC)
T1304 002:905.532   CPU_ReadMem(4 bytes @ 0xE0001000)
T1304 002:906.775   CPU_WriteMem(4 bytes @ 0xE0001000)
T1304 002:908.071 - 84.798ms
T1304 002:908.092 JLINK_Halt()
T1304 002:908.098 - 0.009ms returns 0x00
T1304 002:908.105 JLINK_ReadMemU32(0xE000EDF0, 0x1 Items)
T1304 002:908.117   CPU_ReadMem(4 bytes @ 0xE000EDF0)
T1304 002:909.295   Data:  03 00 03 00
T1304 002:909.312   Debug reg: DHCSR
T1304 002:909.321 - 1.219ms returns 1 (0x1)
T1304 002:909.339 JLINK_WriteU32_64(0xE000EDF0, 0xA05F0003)
T1304 002:909.346   Debug reg: DHCSR
T1304 002:909.515   CPU_WriteMem(4 bytes @ 0xE000EDF0)
T1304 002:910.774 - 1.446ms returns 0 (0x00000000)
T1304 002:910.792 JLINK_WriteU32_64(0xE000EDFC, 0x01000000)
T1304 002:910.799   Debug reg: DEMCR
T1304 002:910.814   CPU_WriteMem(4 bytes @ 0xE000EDFC)
T1304 002:912.251 - 1.470ms returns 0 (0x00000000)
T1304 002:916.688 JLINK_GetHWStatus(...)
T1304 002:917.697 - 1.023ms returns 0
T1304 002:920.850 JLINK_GetNumBPUnits(Type = 0xFFFFFF00)
T1304 002:920.865 - 0.017ms returns 0x04
T1304 002:920.872 JLINK_GetNumBPUnits(Type = 0xF0)
T1304 002:920.878 - 0.009ms returns 0x2000
T1304 002:920.885 JLINK_GetNumWPUnits()
T1304 002:920.890 - 0.008ms returns 2
T1304 002:923.930 JLINK_GetSpeed()
T1304 002:923.945 - 0.018ms returns 4000
T1304 002:928.326 JLINK_ReadMemU32(0xE000E004, 0x1 Items)
T1304 002:928.351   CPU_ReadMem(4 bytes @ 0xE000E004)
T1304 002:929.483   Data:  00 00 00 00
T1304 002:929.522 - 1.199ms returns 1 (0x1)
T1304 002:929.535 JLINK_Halt()
T1304 002:929.543 - 0.010ms returns 0x00
T1304 002:929.549 JLINK_IsHalted()
T1304 002:929.556 - 0.009ms returns TRUE
T1304 002:933.144 JLINK_WriteMem(0x20000000, 0x114 Bytes, ...)
T1304 002:933.156   Data:  00 BE 0A E0 0D 78 2D 06 68 40 08 24 40 00 00 D3 ...
T1304 002:933.336   CPU_WriteMem(276 bytes @ 0x20000000)
T1304 002:936.252 - 3.125ms returns 0x114
T1304 002:936.294 JLINK_HasError()
T1304 002:936.303 JLINK_WriteReg(R0, 0x08000000)
T1304 002:936.312 - 0.011ms returns 0
T1304 002:936.319 JLINK_WriteReg(R1, 0x007A1200)
T1304 002:936.325 - 0.009ms returns 0
T1304 002:936.331 JLINK_WriteReg(R2, 0x00000001)
T1304 002:936.338 - 0.009ms returns 0
T1304 002:936.344 JLINK_WriteReg(R3, 0x00000000)
T1304 002:936.351 - 0.009ms returns 0
T1304 002:936.357 JLINK_WriteReg(R4, 0x00000000)
T1304 002:936.363 - 0.009ms returns 0
T1304 002:936.370 JLINK_WriteReg(R5, 0x00000000)
T1304 002:936.376 - 0.009ms returns 0
T1304 002:936.383 JLINK_WriteReg(R6, 0x00000000)
T1304 002:936.389 - 0.009ms returns 0
T1304 002:936.395 JLINK_WriteReg(R7, 0x00000000)
T1304 002:936.402 - 0.009ms returns 0
T1304 002:936.408 JLINK_WriteReg(R8, 0x00000000)
T1304 002:936.425 - 0.020ms returns 0
T1304 002:936.432 JLINK_WriteReg(R9, 0x20000110)
T1304 002:936.438 - 0.009ms returns 0
T1304 002:936.445 JLINK_WriteReg(R10, 0x00000000)
T1304 002:936.451 - 0.009ms returns 0
T1304 002:936.457 JLINK_WriteReg(R11, 0x00000000)
T1304 002:936.464 - 0.009ms returns 0
T1304 002:936.470 JLINK_WriteReg(R12, 0x00000000)
T1304 002:936.476 - 0.009ms returns 0
T1304 002:936.483 JLINK_WriteReg(R13 (SP), 0x20001000)
T1304 002:936.490 - 0.009ms returns 0
T1304 002:936.496 JLINK_WriteReg(R14, 0x20000001)
T1304 002:936.502 - 0.009ms returns 0
T1304 002:936.509 JLINK_WriteReg(R15 (PC), 0x2000002C)
T1304 002:936.520 - 0.015ms returns 0
T1304 002:936.527 JLINK_WriteReg(XPSR, 0x01000000)
T1304 002:936.534 - 0.009ms returns 0
T1304 002:936.540 JLINK_WriteReg(MSP, 0x20001000)
T1304 002:936.547 - 0.009ms returns 0
T1304 002:936.553 JLINK_WriteReg(PSP, 0x20001000)
T1304 002:936.559 - 0.009ms returns 0
T1304 002:936.565 JLINK_WriteReg(CFBP, 0x00000000)
T1304 002:936.572 - 0.009ms returns 0
T1304 002:936.578 JLINK_SetBPEx(Addr = 0x20000000, Type = 0xFFFFFFF2)
T1304 002:936.591   CPU_ReadMem(2 bytes @ 0x20000000)
T1304 002:937.730 - 1.163ms returns 0x00000001
T1304 002:937.749 JLINK_Go()
T1304 002:937.758   CPU_WriteMem(2 bytes @ 0x20000000)
T1304 002:939.030   CPU_ReadMem(4 bytes @ 0xE0001000)
T1304 002:940.389   CPU_WriteMem(4 bytes @ 0xE0001000)
T1304 002:941.678   CPU_WriteMem(4 bytes @ 0xE0002008)
T1304 002:941.697   CPU_WriteMem(4 bytes @ 0xE000200C)
T1304 002:941.706   CPU_WriteMem(4 bytes @ 0xE0002010)
T1304 002:941.715   CPU_WriteMem(4 bytes @ 0xE0002014)
T1304 002:943.604   CPU_WriteMem(4 bytes @ 0xE0001004)
T1304 002:949.283 - 11.546ms
T1304 002:949.302 JLINK_IsHalted()
T1304 002:953.322   CPU_ReadMem(2 bytes @ 0x20000000)
T1304 002:954.236 - 4.945ms returns TRUE
T1304 002:954.254 JLINK_ReadReg(R15 (PC))
T1304 002:954.263 - 0.011ms returns 0x20000000
T1304 002:954.269 JLINK_ClrBPEx(BPHandle = 0x00000001)
T1304 002:954.276 - 0.009ms returns 0x00
T1304 002:954.283 JLINK_ReadReg(R0)
T1304 002:954.289 - 0.009ms returns 0x00000000
T1304 002:954.476 JLINK_HasError()
T1304 002:954.489 JLINK_WriteReg(R0, 0x08000000)
T1304 002:954.497 - 0.011ms returns 0
T1304 002:954.504 JLINK_WriteReg(R1, 0x00000800)
T1304 002:954.510 - 0.009ms returns 0
T1304 002:954.517 JLINK_WriteReg(R2, 0x000000FF)
T1304 002:954.523 - 0.009ms returns 0
T1304 002:954.529 JLINK_WriteReg(R3, 0x00000000)
T1304 002:954.536 - 0.009ms returns 0
T1304 002:954.542 JLINK_WriteReg(R4, 0x00000000)
T1304 002:954.548 - 0.009ms returns 0
T1304 002:954.555 JLINK_WriteReg(R5, 0x00000000)
T1304 002:954.561 - 0.009ms returns 0
T1304 002:954.568 JLINK_WriteReg(R6, 0x00000000)
T1304 002:954.574 - 0.009ms returns 0
T1304 002:954.580 JLINK_WriteReg(R7, 0x00000000)
T1304 002:954.587 - 0.009ms returns 0
T1304 002:954.593 JLINK_WriteReg(R8, 0x00000000)
T1304 002:954.599 - 0.009ms returns 0
T1304 002:954.606 JLINK_WriteReg(R9, 0x20000110)
T1304 002:954.612 - 0.009ms returns 0
T1304 002:954.619 JLINK_WriteReg(R10, 0x00000000)
T1304 002:954.625 - 0.009ms returns 0
T1304 002:954.631 JLINK_WriteReg(R11, 0x00000000)
T1304 002:954.637 - 0.009ms returns 0
T1304 002:954.644 JLINK_WriteReg(R12, 0x00000000)
T1304 002:954.650 - 0.009ms returns 0
T1304 002:954.656 JLINK_WriteReg(R13 (SP), 0x20001000)
T1304 002:954.663 - 0.009ms returns 0
T1304 002:954.669 JLINK_WriteReg(R14, 0x20000001)
T1304 002:954.676 - 0.009ms returns 0
T1304 002:954.682 JLINK_WriteReg(R15 (PC), 0x2000004A)
T1304 002:954.688 - 0.009ms returns 0
T1304 002:954.695 JLINK_WriteReg(XPSR, 0x01000000)
T1304 002:954.701 - 0.009ms returns 0
T1304 002:954.708 JLINK_WriteReg(MSP, 0x20001000)
T1304 002:954.714 - 0.009ms returns 0
T1304 002:954.721 JLINK_WriteReg(PSP, 0x20001000)
T1304 002:954.727 - 0.009ms returns 0
T1304 002:954.733 JLINK_WriteReg(CFBP, 0x00000000)
T1304 002:954.739 - 0.009ms returns 0
T1304 002:954.746 JLINK_SetBPEx(Addr = 0x20000000, Type = 0xFFFFFFF2)
T1304 002:954.753 - 0.009ms returns 0x00000002
T1304 002:954.759 JLINK_Go()
T1304 002:954.769   CPU_ReadMem(4 bytes @ 0xE0001000)
T1304 002:959.474 - 4.726ms
T1304 002:959.491 JLINK_IsHalted()
T1304 002:963.913   CPU_ReadMem(2 bytes @ 0x20000000)
T1304 002:964.886 - 5.406ms returns TRUE
T1304 002:964.903 JLINK_ReadReg(R15 (PC))
T1304 002:964.911 - 0.011ms returns 0x20000000
T1304 002:964.918 JLINK_ClrBPEx(BPHandle = 0x00000002)
T1304 002:964.924 - 0.009ms returns 0x00
T1304 002:964.931 JLINK_ReadReg(R0)
T1304 002:964.937 - 0.009ms returns 0x00000001
T1304 002:964.944 JLINK_HasError()
T1304 002:964.950 JLINK_WriteReg(R0, 0x08000000)
T1304 002:964.957 - 0.009ms returns 0
T1304 002:964.989 JLINK_WriteReg(R1, 0x00000800)
T1304 002:964.998 - 0.012ms returns 0
T1304 002:965.005 JLINK_WriteReg(R2, 0x000000FF)
T1304 002:965.011 - 0.009ms returns 0
T1304 002:965.018 JLINK_WriteReg(R3, 0x00000000)
T1304 002:965.024 - 0.009ms returns 0
T1304 002:965.030 JLINK_WriteReg(R4, 0x00000000)
T1304 002:965.037 - 0.009ms returns 0
T1304 002:965.043 JLINK_WriteReg(R5, 0x00000000)
T1304 002:965.049 - 0.009ms returns 0
T1304 002:965.056 JLINK_WriteReg(R6, 0x00000000)
T1304 002:965.062 - 0.009ms returns 0
T1304 002:965.069 JLINK_WriteReg(R7, 0x00000000)
T1304 002:965.075 - 0.009ms returns 0
T1304 002:965.081 JLINK_WriteReg(R8, 0x00000000)
T1304 002:965.088 - 0.009ms returns 0
T1304 002:965.094 JLINK_WriteReg(R9, 0x20000110)
T1304 002:965.100 - 0.009ms returns 0
T1304 002:965.107 JLINK_WriteReg(R10, 0x00000000)
T1304 002:965.113 - 0.009ms returns 0
T1304 002:965.119 JLINK_WriteReg(R11, 0x00000000)
T1304 002:965.126 - 0.009ms returns 0
T1304 002:965.132 JLINK_WriteReg(R12, 0x00000000)
T1304 002:965.138 - 0.009ms returns 0
T1304 002:965.145 JLINK_WriteReg(R13 (SP), 0x20001000)
T1304 002:965.151 - 0.009ms returns 0
T1304 002:965.158 JLINK_WriteReg(R14, 0x20000001)
T1304 002:965.164 - 0.009ms returns 0
T1304 002:965.170 JLINK_WriteReg(R15 (PC), 0x20000084)
T1304 002:965.177 - 0.009ms returns 0
T1304 002:965.183 JLINK_WriteReg(XPSR, 0x01000000)
T1304 002:965.190 - 0.009ms returns 0
T1304 002:965.196 JLINK_WriteReg(MSP, 0x20001000)
T1304 002:965.202 - 0.009ms returns 0
T1304 002:965.208 JLINK_WriteReg(PSP, 0x20001000)
T1304 002:965.215 - 0.009ms returns 0
T1304 002:965.221 JLINK_WriteReg(CFBP, 0x00000000)
T1304 002:965.228 - 0.009ms returns 0
T1304 002:965.234 JLINK_SetBPEx(Addr = 0x20000000, Type = 0xFFFFFFF2)
T1304 002:965.241 - 0.009ms returns 0x00000003
T1304 002:965.247 JLINK_Go()
T1304 002:965.257   CPU_ReadMem(4 bytes @ 0xE0001000)
T1304 002:970.919 - 5.684ms
T1304 002:970.936 JLINK_IsHalted()
T1304 002:974.646   CPU_ReadMem(2 bytes @ 0x20000000)
T1304 002:975.763 - 4.838ms returns TRUE
T1304 002:975.780 JLINK_ReadReg(R15 (PC))
T1304 002:975.788 - 0.011ms returns 0x20000000
T1304 002:975.795 JLINK_ClrBPEx(BPHandle = 0x00000003)
T1304 002:975.802 - 0.009ms returns 0x00
T1304 002:975.808 JLINK_ReadReg(R0)
T1304 002:975.815 - 0.009ms returns 0x00000001
T1304 002:975.821 JLINK_HasError()
T1304 002:975.828 JLINK_WriteReg(R0, 0x00000001)
T1304 002:975.835 - 0.009ms returns 0
T1304 002:975.841 JLINK_WriteReg(R1, 0x00000800)
T1304 002:975.848 - 0.009ms returns 0
T1304 002:975.854 JLINK_WriteReg(R2, 0x000000FF)
T1304 002:975.861 - 0.009ms returns 0
T1304 002:975.867 JLINK_WriteReg(R3, 0x00000000)
T1304 002:975.873 - 0.009ms returns 0
T1304 002:975.880 JLINK_WriteReg(R4, 0x00000000)
T1304 002:975.886 - 0.009ms returns 0
T1304 002:975.892 JLINK_WriteReg(R5, 0x00000000)
T1304 002:975.899 - 0.009ms returns 0
T1304 002:975.905 JLINK_WriteReg(R6, 0x00000000)
T1304 002:975.912 - 0.009ms returns 0
T1304 002:975.918 JLINK_WriteReg(R7, 0x00000000)
T1304 002:975.924 - 0.009ms returns 0
T1304 002:975.931 JLINK_WriteReg(R8, 0x00000000)
T1304 002:975.937 - 0.009ms returns 0
T1304 002:975.943 JLINK_WriteReg(R9, 0x20000110)
T1304 002:975.950 - 0.009ms returns 0
T1304 002:975.956 JLINK_WriteReg(R10, 0x00000000)
T1304 002:975.963 - 0.009ms returns 0
T1304 002:975.969 JLINK_WriteReg(R11, 0x00000000)
T1304 002:975.975 - 0.009ms returns 0
T1304 002:975.982 JLINK_WriteReg(R12, 0x00000000)
T1304 002:975.988 - 0.009ms returns 0
T1304 002:975.994 JLINK_WriteReg(R13 (SP), 0x20001000)
T1304 002:976.001 - 0.009ms returns 0
T1304 002:976.007 JLINK_WriteReg(R14, 0x20000001)
T1304 002:976.014 - 0.009ms returns 0
T1304 002:976.020 JLINK_WriteReg(R15 (PC), 0x2000003E)
T1304 002:976.026 - 0.009ms returns 0
T1304 002:976.033 JLINK_WriteReg(XPSR, 0x01000000)
T1304 002:976.039 - 0.009ms returns 0
T1304 002:976.045 JLINK_WriteReg(MSP, 0x20001000)
T1304 002:976.052 - 0.009ms returns 0
T1304 002:976.058 JLINK_WriteReg(PSP, 0x20001000)
T1304 002:976.064 - 0.009ms returns 0
T1304 002:976.072 JLINK_WriteReg(CFBP, 0x00000000)
T1304 002:976.080 - 0.010ms returns 0
T1304 002:976.087 JLINK_SetBPEx(Addr = 0x20000000, Type = 0xFFFFFFF2)
T1304 002:976.094 - 0.009ms returns 0x00000004
T1304 002:976.100 JLINK_Go()
T1304 002:976.110   CPU_ReadMem(4 bytes @ 0xE0001000)
T1304 002:980.979 - 4.890ms
T1304 002:980.997 JLINK_IsHalted()
T1304 002:984.644   CPU_ReadMem(2 bytes @ 0x20000000)
T1304 002:986.020 - 5.035ms returns TRUE
T1304 002:986.039 JLINK_ReadReg(R15 (PC))
T1304 002:986.047 - 0.011ms returns 0x20000000
T1304 002:986.054 JLINK_ClrBPEx(BPHandle = 0x00000004)
T1304 002:986.060 - 0.009ms returns 0x00
T1304 002:986.067 JLINK_ReadReg(R0)
T1304 002:986.073 - 0.009ms returns 0x00000000
T1304 005:453.529 JLINK_Close()
T1304 005:454.604   CPU_ReadMem(2 bytes @ 0x20000000)
T1304 005:455.463   CPU_WriteMem(2 bytes @ 0x20000000)
T1304 005:456.242   CPU_ReadMem(4 bytes @ 0xE0001000)
T1304 005:456.972   CPU_WriteMem(4 bytes @ 0xE0001000)
T1304 005:487.531 - 34.059ms
T1304 005:487.593   
T1304 005:487.601   Closed
